
T10D4 000:338 SEGGER J-Link V4.96d Log File (0000ms, 0269ms total)
T10D4 000:338 DLL Compiled: Jan 29 2015 11:45:37 (0000ms, 0269ms total)
T10D4 000:338 Logging started @ 2018-06-22 18:15 (0001ms, 0270ms total)
T10D4 000:339 JLINK_SetWarnOutHandler(...) (0000ms, 0270ms total)
T10D4 000:339 JLINK_OpenEx(...)
Firmware: J-Link ARM V8 compiled Nov 28 2014 13:44:46
Hardware: V8.00
S/N: 99999994
Feature(s): RDI,FlashDL,FlashBP,JFlash,GDBFULL  returns O.K. (0268ms, 0538ms total)
T10D4 000:607 JLINK_SetErrorOutHandler(...) (0000ms, 0538ms total)
T10D4 000:607 JLINK_ExecCommand("ProjectFile = "C:\Users\lb\Desktop\ArduCAM_STM32_V0.1\ArduCAM_STM32_V0.1\JLinkSettings.ini"", ...)  returns 0x00 (0002ms, 0540ms total)
T10D4 000:617 JLINK_ExecCommand("Device = STM32F103C8", ...)Device "STM32F103C8" selected.  returns 0x00 (0009ms, 0549ms total)
T10D4 000:626 JLINK_ExecCommand("DisableConnectionTimeout", ...)  returns 0x01 (0000ms, 0549ms total)
T10D4 000:626 JLINK_GetHardwareVersion()  returns 0x13880 (0000ms, 0549ms total)
T10D4 000:626 JLINK_GetDLLVersion()  returns 49604 (0000ms, 0549ms total)
T10D4 000:627 JLINK_GetFirmwareString(...) (0000ms, 0549ms total)
T10D4 000:659 JLINK_GetDLLVersion()  returns 49604 (0000ms, 0549ms total)
T10D4 000:659 JLINK_GetCompileDateTime() (0000ms, 0549ms total)
T10D4 000:662 JLINK_GetFirmwareString(...) (0000ms, 0549ms total)
T10D4 000:664 JLINK_GetHardwareVersion()  returns 0x13880 (0001ms, 0550ms total)
T10D4 000:679 JLINK_TIF_Select(JLINKARM_TIF_JTAG)  returns 0x00 (0001ms, 0551ms total)
T10D4 000:680 JLINK_SetSpeed(5000) (0000ms, 0551ms total)
T10D4 000:680 JLINK_GetIdData(...) >0x2F8 JTAG>TotalIRLen = 9, IRPrint = 0x0011 >0x30 JTAG> >0x210 JTAG> >0x40 JTAG> >0x40 JTAG> >0x40 JTAG> >0x30 JTAG> >0x40 JTAG> >0x40 JTAG> >0x40 JTAG> >0x40 JTAG> >0x40 JTAG> >0x40 JTAG> >0x40 JTAG> >0x40 JTAG> >0x2F8 JTAG>TotalIRLen = 9, IRPrint = 0x0011 >0x30 JTAG> >0x210 JTAG> >0x70 JTAG> >0x40 JTAG> >0x40 JTAG> >0x40 JTAG> >0x50 JTAG> >0x80 JTAG> >0x40 JTAG> >0x30 JTAG> >0x40 JTAG> >0x40 JTAG> >0x30 JTAG> >0x40 JTAG> >0x50 JTAG>
Found Cortex-M3 r1p1, Little endian. -- CPU_WriteMem(4 bytes @ 0xE0002000) -- CPU_ReadMem(4 bytes @ 0xE000EDF0) -- CPU_ReadMem(4 bytes @ 0xE0002000)FPUnit: 6 code (BP) slots and 2 literal slots -- CPU_ReadMem(4 bytes @ 0xE000EDFC) -- CPU_ReadMem(4 bytes @ 0xE0001000) -- CPU_WriteMem(4 bytes @ 0xE0001000) -- CPU_ReadMem(4 bytes @ 0xE000ED88) -- CPU_WriteMem(4 bytes @ 0xE000ED88) -- CPU_ReadMem(4 bytes @ 0xE000ED88) -- CPU_WriteMem(4 bytes @ 0xE000ED88) -- CPU_ReadMem(4 bytes @ 0xE00FF010)TPIU fitted.
 -- CPU_ReadMem(4 bytes @ 0xE00FF014) -- CPU_ReadMem(4 bytes @ 0xE00FF018) ScanLen=9 NumDevices=2 aId[0]=0x3BA00477 aIrRead[0]=0 aScanLen[0]=0 aScanRead[0]=0 (0031ms, 0582ms total)
T10D4 000:711 JLINK_JTAG_GetDeviceID(DeviceIndex = 0)  returns 0x3BA00477 (0000ms, 0582ms total)
T10D4 000:711 JLINK_JTAG_GetDeviceInfo(DeviceIndex = 0)  returns 0x00 (0000ms, 0582ms total)
T10D4 000:711 JLINK_JTAG_GetDeviceID(DeviceIndex = 1)  returns 0x16410041 (0000ms, 0582ms total)
T10D4 000:711 JLINK_JTAG_GetDeviceInfo(DeviceIndex = 1)  returns 0x00 (0000ms, 0582ms total)
T10D4 000:711 JLINK_GetDLLVersion()  returns 49604 (0000ms, 0582ms total)
T10D4 000:711 JLINK_CORE_GetFound()  returns 0x30000FF (0000ms, 0582ms total)
T10D4 000:711 JLINK_GetDebugInfo(0x100) -- Value=0xE00FF003  returns 0x00 (0000ms, 0582ms total)
T10D4 000:714 JLINK_ReadMem (0xE00FF000, 0x0020 Bytes, ...) -- CPU is running -- CPU_ReadMem(32 bytes @ 0xE00FF000) - Data: 03 F0 F0 FF 03 20 F0 FF 03 30 F0 FF 03 10 F0 FF ...  returns 0x00 (0001ms, 0583ms total)
T10D4 000:715 JLINK_ReadMem (0xE000EFF0, 0x0010 Bytes, ...) -- CPU is running -- CPU_ReadMem(16 bytes @ 0xE000EFF0) - Data: 0D 00 00 00 E0 00 00 00 05 00 00 00 B1 00 00 00  returns 0x00 (0000ms, 0583ms total)
T10D4 000:715 JLINK_ReadMem (0xE000EFD0, 0x0020 Bytes, ...) -- CPU is running -- CPU_ReadMem(32 bytes @ 0xE000EFD0) - Data: 04 00 00 00 00 00 00 00 00 00 00 00 00 00 00 00 ...  returns 0x00 (0001ms, 0584ms total)
T10D4 000:716 JLINK_ReadMem (0xE0001FF0, 0x0010 Bytes, ...) -- CPU is running -- CPU_ReadMem(16 bytes @ 0xE0001FF0) - Data: 0D 00 00 00 E0 00 00 00 05 00 00 00 B1 00 00 00  returns 0x00 (0001ms, 0585ms total)
T10D4 000:717 JLINK_ReadMem (0xE0001FD0, 0x0020 Bytes, ...) -- CPU is running -- CPU_ReadMem(32 bytes @ 0xE0001FD0) - Data: 04 00 00 00 00 00 00 00 00 00 00 00 00 00 00 00 ...  returns 0x00 (0000ms, 0585ms total)
T10D4 000:717 JLINK_ReadMem (0xE0002FF0, 0x0010 Bytes, ...) -- CPU is running -- CPU_ReadMem(16 bytes @ 0xE0002FF0) - Data: 0D 00 00 00 E0 00 00 00 05 00 00 00 B1 00 00 00  returns 0x00 (0001ms, 0586ms total)
T10D4 000:718 JLINK_ReadMem (0xE0002FD0, 0x0020 Bytes, ...) -- CPU is running -- CPU_ReadMem(32 bytes @ 0xE0002FD0) - Data: 04 00 00 00 00 00 00 00 00 00 00 00 00 00 00 00 ...  returns 0x00 (0001ms, 0587ms total)
T10D4 000:719 JLINK_ReadMem (0xE0000FF0, 0x0010 Bytes, ...) -- CPU is running -- CPU_ReadMem(16 bytes @ 0xE0000FF0) - Data: 0D 00 00 00 E0 00 00 00 05 00 00 00 B1 00 00 00  returns 0x00 (0000ms, 0587ms total)
T10D4 000:719 JLINK_ReadMem (0xE0000FD0, 0x0020 Bytes, ...) -- CPU is running -- CPU_ReadMem(32 bytes @ 0xE0000FD0) - Data: 04 00 00 00 00 00 00 00 00 00 00 00 00 00 00 00 ...  returns 0x00 (0001ms, 0588ms total)
T10D4 000:720 JLINK_ReadMem (0xE0040FF0, 0x0010 Bytes, ...) -- CPU is running -- CPU_ReadMem(16 bytes @ 0xE0040FF0) - Data: 0D 00 00 00 90 00 00 00 05 00 00 00 B1 00 00 00  returns 0x00 (0001ms, 0589ms total)
T10D4 000:721 JLINK_ReadMem (0xE0040FD0, 0x0020 Bytes, ...) -- CPU is running -- CPU_ReadMem(32 bytes @ 0xE0040FD0) - Data: 04 00 00 00 00 00 00 00 00 00 00 00 00 00 00 00 ...  returns 0x00 (0000ms, 0589ms total)
T10D4 000:721 JLINK_ReadMemU32(0xE000ED00, 0x0001 Items, ...) -- CPU is running -- CPU_ReadMem(4 bytes @ 0xE000ED00) - Data: 31 C2 1F 41  returns 0x01 (0001ms, 0590ms total)
T10D4 000:722 JLINK_SetResetType(JLINKARM_RESET_TYPE_NORMAL)  returns JLINKARM_RESET_TYPE_NORMAL (0000ms, 0590ms total)
T10D4 000:722 JLINK_Reset() -- CPU is running -- CPU_WriteMem(4 bytes @ 0xE000EDF0) -- CPU is running -- CPU_WriteMem(4 bytes @ 0xE000EDFC) -- CPU is running -- CPU_WriteMem(4 bytes @ 0xE000ED0C) -- CPU is running -- CPU_ReadMem(4 bytes @ 0xE000EDF0) -- CPU is running -- CPU_ReadMem(4 bytes @ 0xE000EDF0) -- CPU is running -- CPU_WriteMem(4 bytes @ 0xE000EDF0) -- CPU is running -- CPU_WriteMem(4 bytes @ 0xE000EDFC) -- CPU is running -- CPU_ReadMem(4 bytes @ 0xE000EDF0) >0x80 JTAG> >0x40 JTAG> >0x30 JTAG>
 >0x40 JTAG> >0x50 JTAG> >0x40 JTAG> -- CPU_WriteMem(4 bytes @ 0xE000EDFC) -- CPU_WriteMem(4 bytes @ 0xE0001028) -- CPU_WriteMem(4 bytes @ 0xE0001038) -- CPU_WriteMem(4 bytes @ 0xE0001048) -- CPU_WriteMem(4 bytes @ 0xE0001058) -- CPU_WriteMem(4 bytes @ 0xE0002000) -- CPU_ReadMem(4 bytes @ 0xE000EDFC) -- CPU_ReadMem(4 bytes @ 0xE0001000) (0024ms, 0614ms total)
T10D4 000:746 JLINK_Halt()  returns 0x00 (0000ms, 0614ms total)
T10D4 000:746 JLINK_IsHalted()  returns TRUE (0000ms, 0614ms total)
T10D4 000:746 JLINK_ReadMemU32(0xE000EDF0, 0x0001 Items, ...) -- CPU_ReadMem(4 bytes @ 0xE000EDF0) - Data: 03 00 03 00  returns 0x01 (0000ms, 0614ms total)
T10D4 000:746 JLINK_WriteU32(0xE000EDF0, 0xA05F0003) -- CPU_WriteMem(4 bytes @ 0xE000EDF0)  returns 0x00 (0001ms, 0615ms total)
T10D4 000:747 JLINK_WriteU32(0xE000EDFC, 0x01000000) -- CPU_WriteMem(4 bytes @ 0xE000EDFC)  returns 0x00 (0000ms, 0615ms total)
T10D4 000:753 JLINK_GetHWStatus(...)  returns 0x00 (0001ms, 0616ms total)
T10D4 000:758 JLINK_GetNumBPUnits(Type = 0xFFFFFF00)  returns 0x06 (0000ms, 0616ms total)
T10D4 000:759 JLINK_GetNumBPUnits(Type = 0xF0)  returns 0x2000 (0000ms, 0616ms total)
T10D4 000:759 JLINK_GetNumWPUnits()  returns 0x04 (0000ms, 0616ms total)
T10D4 000:763 JLINK_GetSpeed()  returns 0x12C0 (0000ms, 0616ms total)
T10D4 000:766 JLINK_ReadMemU32(0xE000E004, 0x0001 Items, ...) -- CPU_ReadMem(4 bytes @ 0xE000E004) - Data: 01 00 00 00  returns 0x01 (0001ms, 0617ms total)
T10D4 000:767 JLINK_ReadMemU32(0xE000E004, 0x0001 Items, ...) -- CPU_ReadMem(4 bytes @ 0xE000E004) - Data: 01 00 00 00  returns 0x01 (0000ms, 0617ms total)
T10D4 000:767 JLINK_WriteMem(0xE0001000, 0x001C Bytes, ...) - Data: 01 00 00 00 00 00 00 00 00 00 00 00 00 00 00 00 ... -- CPU_WriteMem(28 bytes @ 0xE0001000)  returns 0x1C (0001ms, 0618ms total)
T10D4 000:768 JLINK_ReadMem (0xE0001000, 0x001C Bytes, ...) -- CPU_ReadMem(28 bytes @ 0xE0001000) - Data: 01 00 00 40 00 00 00 00 00 00 00 00 00 00 00 00 ...  returns 0x00 (0001ms, 0619ms total)
T10D4 000:769 JLINK_Halt()  returns 0x00 (0000ms, 0619ms total)
T10D4 000:769 JLINK_IsHalted()  returns TRUE (0000ms, 0619ms total)
T10D4 000:772 JLINK_WriteMem(0x20000000, 0x0164 Bytes, ...) - Data: 00 BE 0A E0 0D 78 2D 06 68 40 08 24 40 00 00 D3 ... -- CPU_WriteMem(356 bytes @ 0x20000000)  returns 0x164 (0003ms, 0622ms total)
T10D4 000:775 JLINK_WriteReg(R0, 0x08000000)  returns 0x00 (0001ms, 0623ms total)
T10D4 000:776 JLINK_WriteReg(R1, 0x00B71B00)  returns 0x00 (0000ms, 0623ms total)
T10D4 000:776 JLINK_WriteReg(R2, 0x00000001)  returns 0x00 (0000ms, 0623ms total)
T10D4 000:776 JLINK_WriteReg(R3, 0x00000000)  returns 0x00 (0000ms, 0623ms total)
T10D4 000:776 JLINK_WriteReg(R4, 0x00000000)  returns 0x00 (0000ms, 0623ms total)
T10D4 000:776 JLINK_WriteReg(R5, 0x00000000)  returns 0x00 (0000ms, 0623ms total)
T10D4 000:776 JLINK_WriteReg(R6, 0x00000000)  returns 0x00 (0000ms, 0623ms total)
T10D4 000:776 JLINK_WriteReg(R7, 0x00000000)  returns 0x00 (0000ms, 0623ms total)
T10D4 000:776 JLINK_WriteReg(R8, 0x00000000)  returns 0x00 (0000ms, 0623ms total)
T10D4 000:776 JLINK_WriteReg(R9, 0x20000160)  returns 0x00 (0000ms, 0623ms total)
T10D4 000:776 JLINK_WriteReg(R10, 0x00000000)  returns 0x00 (0000ms, 0623ms total)
T10D4 000:776 JLINK_WriteReg(R11, 0x00000000)  returns 0x00 (0000ms, 0623ms total)
T10D4 000:776 JLINK_WriteReg(R12, 0x00000000)  returns 0x00 (0000ms, 0623ms total)
T10D4 000:776 JLINK_WriteReg(R13 (SP), 0x20001000)  returns 0x00 (0000ms, 0623ms total)
T10D4 000:776 JLINK_WriteReg(R14, 0x20000001)  returns 0x00 (0000ms, 0623ms total)
T10D4 000:776 JLINK_WriteReg(R15 (PC), 0x20000038)  returns 0x00 (0000ms, 0623ms total)
T10D4 000:776 JLINK_WriteReg(XPSR, 0x01000000)  returns 0x00 (0000ms, 0623ms total)
T10D4 000:776 JLINK_WriteReg(MSP, 0x20001000)  returns 0x00 (0000ms, 0623ms total)
T10D4 000:776 JLINK_WriteReg(PSP, 0x20001000)  returns 0x00 (0000ms, 0623ms total)
T10D4 000:776 JLINK_WriteReg(CFBP, 0x00000000)  returns 0x00 (0000ms, 0623ms total)
T10D4 000:776 JLINK_SetBPEx(Addr = 0x20000000, Type = 0xFFFFFFF2) -- CPU_ReadMem(2 bytes @ 0x20000000)  returns 0x00000001 (0001ms, 0624ms total)
T10D4 000:777 JLINK_Go() -- CPU_WriteMem(2 bytes @ 0x20000000) -- CPU_WriteMem(4 bytes @ 0xE0002008) -- CPU_WriteMem(4 bytes @ 0xE000200C) -- CPU_WriteMem(4 bytes @ 0xE0002010) -- CPU_WriteMem(4 bytes @ 0xE0002014) -- CPU_WriteMem(4 bytes @ 0xE0002018) -- CPU_WriteMem(4 bytes @ 0xE000201C) -- CPU_WriteMem(4 bytes @ 0xE0001004) (0004ms, 0628ms total)
T10D4 000:781 JLINK_IsHalted() -- CPU_ReadMem(2 bytes @ 0x20000000)  returns TRUE (0004ms, 0632ms total)
T10D4 000:785 JLINK_ReadReg(R15 (PC))  returns 0x20000000 (0000ms, 0628ms total)
T10D4 000:785 JLINK_ClrBPEx(BPHandle = 0x00000001)  returns 0x00 (0000ms, 0628ms total)
T10D4 000:785 JLINK_ReadReg(R0)  returns 0x00000000 (0000ms, 0628ms total)
T10D4 000:786 JLINK_WriteReg(R0, 0x08000000)  returns 0x00 (0000ms, 0628ms total)
T10D4 000:786 JLINK_WriteReg(R1, 0x00B71B00)  returns 0x00 (0000ms, 0628ms total)
T10D4 000:786 JLINK_WriteReg(R2, 0x00000001)  returns 0x00 (0000ms, 0628ms total)
T10D4 000:786 JLINK_WriteReg(R3, 0x00000000)  returns 0x00 (0000ms, 0628ms total)
T10D4 000:786 JLINK_WriteReg(R4, 0x00000000)  returns 0x00 (0000ms, 0628ms total)
T10D4 000:786 JLINK_WriteReg(R5, 0x00000000)  returns 0x00 (0000ms, 0628ms total)
T10D4 000:786 JLINK_WriteReg(R6, 0x00000000)  returns 0x00 (0000ms, 0628ms total)
T10D4 000:786 JLINK_WriteReg(R7, 0x00000000)  returns 0x00 (0000ms, 0628ms total)
T10D4 000:786 JLINK_WriteReg(R8, 0x00000000)  returns 0x00 (0000ms, 0628ms total)
T10D4 000:786 JLINK_WriteReg(R9, 0x20000160)  returns 0x00 (0000ms, 0628ms total)
T10D4 000:786 JLINK_WriteReg(R10, 0x00000000)  returns 0x00 (0000ms, 0628ms total)
T10D4 000:786 JLINK_WriteReg(R11, 0x00000000)  returns 0x00 (0001ms, 0629ms total)
T10D4 000:787 JLINK_WriteReg(R12, 0x00000000)  returns 0x00 (0000ms, 0629ms total)
T10D4 000:787 JLINK_WriteReg(R13 (SP), 0x20001000)  returns 0x00 (0000ms, 0629ms total)
T10D4 000:787 JLINK_WriteReg(R14, 0x20000001)  returns 0x00 (0000ms, 0629ms total)
T10D4 000:787 JLINK_WriteReg(R15 (PC), 0x2000007C)  returns 0x00 (0000ms, 0629ms total)
T10D4 000:787 JLINK_WriteReg(XPSR, 0x01000000)  returns 0x00 (0000ms, 0629ms total)
T10D4 000:787 JLINK_WriteReg(MSP, 0x20001000)  returns 0x00 (0000ms, 0629ms total)
T10D4 000:787 JLINK_WriteReg(PSP, 0x20001000)  returns 0x00 (0000ms, 0629ms total)
T10D4 000:787 JLINK_WriteReg(CFBP, 0x00000000)  returns 0x00 (0000ms, 0629ms total)
T10D4 000:787 JLINK_SetBPEx(Addr = 0x20000000, Type = 0xFFFFFFF2)  returns 0x00000002 (0000ms, 0629ms total)
T10D4 000:787 JLINK_Go() (0001ms, 0630ms total)
T10D4 000:788 JLINK_IsHalted()  returns FALSE (0001ms, 0631ms total)
T10D4 000:826 JLINK_IsHalted() -- CPU_ReadMem(2 bytes @ 0x20000000)  returns TRUE (0003ms, 0633ms total)
T10D4 000:829 JLINK_ReadReg(R15 (PC))  returns 0x20000000 (0000ms, 0630ms total)
T10D4 000:829 JLINK_ClrBPEx(BPHandle = 0x00000002)  returns 0x00 (0000ms, 0630ms total)
T10D4 000:829 JLINK_ReadReg(R0)  returns 0x00000000 (0000ms, 0630ms total)
T10D4 000:881 JLINK_WriteReg(R0, 0x00000001)  returns 0x00 (0000ms, 0630ms total)
T10D4 000:881 JLINK_WriteReg(R1, 0x00B71B00)  returns 0x00 (0000ms, 0630ms total)
T10D4 000:881 JLINK_WriteReg(R2, 0x00000001)  returns 0x00 (0000ms, 0630ms total)
T10D4 000:881 JLINK_WriteReg(R3, 0x00000000)  returns 0x00 (0000ms, 0630ms total)
T10D4 000:881 JLINK_WriteReg(R4, 0x00000000)  returns 0x00 (0000ms, 0630ms total)
T10D4 000:881 JLINK_WriteReg(R5, 0x00000000)  returns 0x00 (0000ms, 0630ms total)
T10D4 000:881 JLINK_WriteReg(R6, 0x00000000)  returns 0x00 (0000ms, 0630ms total)
T10D4 000:881 JLINK_WriteReg(R7, 0x00000000)  returns 0x00 (0001ms, 0631ms total)
T10D4 000:882 JLINK_WriteReg(R8, 0x00000000)  returns 0x00 (0000ms, 0631ms total)
T10D4 000:882 JLINK_WriteReg(R9, 0x20000160)  returns 0x00 (0000ms, 0631ms total)
T10D4 000:882 JLINK_WriteReg(R10, 0x00000000)  returns 0x00 (0000ms, 0631ms total)
T10D4 000:882 JLINK_WriteReg(R11, 0x00000000)  returns 0x00 (0000ms, 0631ms total)
T10D4 000:882 JLINK_WriteReg(R12, 0x00000000)  returns 0x00 (0000ms, 0631ms total)
T10D4 000:882 JLINK_WriteReg(R13 (SP), 0x20001000)  returns 0x00 (0000ms, 0631ms total)
T10D4 000:882 JLINK_WriteReg(R14, 0x20000001)  returns 0x00 (0000ms, 0631ms total)
T10D4 000:882 JLINK_WriteReg(R15 (PC), 0x2000006A)  returns 0x00 (0000ms, 0631ms total)
T10D4 000:882 JLINK_WriteReg(XPSR, 0x01000000)  returns 0x00 (0000ms, 0631ms total)
T10D4 000:882 JLINK_WriteReg(MSP, 0x20001000)  returns 0x00 (0000ms, 0631ms total)
T10D4 000:882 JLINK_WriteReg(PSP, 0x20001000)  returns 0x00 (0000ms, 0631ms total)
T10D4 000:882 JLINK_WriteReg(CFBP, 0x00000000)  returns 0x00 (0000ms, 0631ms total)
T10D4 000:882 JLINK_SetBPEx(Addr = 0x20000000, Type = 0xFFFFFFF2)  returns 0x00000003 (0000ms, 0631ms total)
T10D4 000:882 JLINK_Go() (0002ms, 0633ms total)
T10D4 000:884 JLINK_IsHalted() -- CPU_ReadMem(2 bytes @ 0x20000000)  returns TRUE (0003ms, 0636ms total)
T10D4 000:887 JLINK_ReadReg(R15 (PC))  returns 0x20000000 (0000ms, 0633ms total)
T10D4 000:887 JLINK_ClrBPEx(BPHandle = 0x00000003)  returns 0x00 (0000ms, 0633ms total)
T10D4 000:887 JLINK_ReadReg(R0)  returns 0x00000000 (0000ms, 0633ms total)
T10D4 000:892 JLINK_WriteMem(0x20000000, 0x0164 Bytes, ...) - Data: 00 BE 0A E0 0D 78 2D 06 68 40 08 24 40 00 00 D3 ... -- CPU_WriteMem(356 bytes @ 0x20000000)  returns 0x164 (0004ms, 0637ms total)
T10D4 000:896 JLINK_WriteReg(R0, 0x08000000)  returns 0x00 (0000ms, 0637ms total)
T10D4 000:896 JLINK_WriteReg(R1, 0x00B71B00)  returns 0x00 (0000ms, 0637ms total)
T10D4 000:896 JLINK_WriteReg(R2, 0x00000002)  returns 0x00 (0000ms, 0637ms total)
T10D4 000:896 JLINK_WriteReg(R3, 0x00000000)  returns 0x00 (0000ms, 0637ms total)
T10D4 000:896 JLINK_WriteReg(R4, 0x00000000)  returns 0x00 (0000ms, 0637ms total)
T10D4 000:896 JLINK_WriteReg(R5, 0x00000000)  returns 0x00 (0000ms, 0637ms total)
T10D4 000:896 JLINK_WriteReg(R6, 0x00000000)  returns 0x00 (0000ms, 0637ms total)
T10D4 000:896 JLINK_WriteReg(R7, 0x00000000)  returns 0x00 (0000ms, 0637ms total)
T10D4 000:896 JLINK_WriteReg(R8, 0x00000000)  returns 0x00 (0000ms, 0637ms total)
T10D4 000:896 JLINK_WriteReg(R9, 0x20000160)  returns 0x00 (0000ms, 0637ms total)
T10D4 000:896 JLINK_WriteReg(R10, 0x00000000)  returns 0x00 (0001ms, 0638ms total)
T10D4 000:897 JLINK_WriteReg(R11, 0x00000000)  returns 0x00 (0000ms, 0638ms total)
T10D4 000:897 JLINK_WriteReg(R12, 0x00000000)  returns 0x00 (0000ms, 0638ms total)
T10D4 000:897 JLINK_WriteReg(R13 (SP), 0x20001000)  returns 0x00 (0000ms, 0638ms total)
T10D4 000:897 JLINK_WriteReg(R14, 0x20000001)  returns 0x00 (0000ms, 0638ms total)
T10D4 000:897 JLINK_WriteReg(R15 (PC), 0x20000038)  returns 0x00 (0000ms, 0638ms total)
T10D4 000:897 JLINK_WriteReg(XPSR, 0x01000000)  returns 0x00 (0000ms, 0638ms total)
T10D4 000:897 JLINK_WriteReg(MSP, 0x20001000)  returns 0x00 (0000ms, 0638ms total)
T10D4 000:897 JLINK_WriteReg(PSP, 0x20001000)  returns 0x00 (0000ms, 0638ms total)
T10D4 000:897 JLINK_WriteReg(CFBP, 0x00000000)  returns 0x00 (0000ms, 0638ms total)
T10D4 000:897 JLINK_SetBPEx(Addr = 0x20000000, Type = 0xFFFFFFF2) -- CPU_ReadMem(2 bytes @ 0x20000000)  returns 0x00000004 (0001ms, 0639ms total)
T10D4 000:898 JLINK_Go() -- CPU_WriteMem(2 bytes @ 0x20000000) (0001ms, 0640ms total)
T10D4 000:899 JLINK_IsHalted() -- CPU_ReadMem(2 bytes @ 0x20000000)  returns TRUE (0004ms, 0644ms total)
T10D4 000:903 JLINK_ReadReg(R15 (PC))  returns 0x20000000 (0000ms, 0640ms total)
T10D4 000:903 JLINK_ClrBPEx(BPHandle = 0x00000004)  returns 0x00 (0000ms, 0640ms total)
T10D4 000:903 JLINK_ReadReg(R0)  returns 0x00000000 (0000ms, 0640ms total)
T10D4 000:904 JLINK_WriteMem(0x20000164, 0x0400 Bytes, ...) - Data: B8 26 00 20 89 01 00 08 C3 07 00 08 BB 07 00 08 ... -- CPU_WriteMem(1024 bytes @ 0x20000164)  returns 0x400 (0008ms, 0648ms total)
T10D4 000:912 JLINK_WriteReg(R0, 0x08000000)  returns 0x00 (0000ms, 0648ms total)
T10D4 000:912 JLINK_WriteReg(R1, 0x00000400)  returns 0x00 (0000ms, 0648ms total)
T10D4 000:912 JLINK_WriteReg(R2, 0x20000164)  returns 0x00 (0000ms, 0648ms total)
T10D4 000:912 JLINK_WriteReg(R3, 0x00000000)  returns 0x00 (0000ms, 0648ms total)
T10D4 000:912 JLINK_WriteReg(R4, 0x00000000)  returns 0x00 (0000ms, 0648ms total)
T10D4 000:912 JLINK_WriteReg(R5, 0x00000000)  returns 0x00 (0000ms, 0648ms total)
T10D4 000:912 JLINK_WriteReg(R6, 0x00000000)  returns 0x00 (0000ms, 0648ms total)
T10D4 000:912 JLINK_WriteReg(R7, 0x00000000)  returns 0x00 (0001ms, 0649ms total)
T10D4 000:913 JLINK_WriteReg(R8, 0x00000000)  returns 0x00 (0000ms, 0649ms total)
T10D4 000:913 JLINK_WriteReg(R9, 0x20000160)  returns 0x00 (0000ms, 0649ms total)
T10D4 000:913 JLINK_WriteReg(R10, 0x00000000)  returns 0x00 (0000ms, 0649ms total)
T10D4 000:913 JLINK_WriteReg(R11, 0x00000000)  returns 0x00 (0000ms, 0649ms total)
T10D4 000:913 JLINK_WriteReg(R12, 0x00000000)  returns 0x00 (0000ms, 0649ms total)
T10D4 000:913 JLINK_WriteReg(R13 (SP), 0x20001000)  returns 0x00 (0000ms, 0649ms total)
T10D4 000:913 JLINK_WriteReg(R14, 0x20000001)  returns 0x00 (0000ms, 0649ms total)
T10D4 000:913 JLINK_WriteReg(R15 (PC), 0x200000F4)  returns 0x00 (0000ms, 0649ms total)
T10D4 000:913 JLINK_WriteReg(XPSR, 0x01000000)  returns 0x00 (0000ms, 0649ms total)
T10D4 000:913 JLINK_WriteReg(MSP, 0x20001000)  returns 0x00 (0000ms, 0649ms total)
T10D4 000:913 JLINK_WriteReg(PSP, 0x20001000)  returns 0x00 (0000ms, 0649ms total)
T10D4 000:913 JLINK_WriteReg(CFBP, 0x00000000)  returns 0x00 (0000ms, 0649ms total)
T10D4 000:913 JLINK_SetBPEx(Addr = 0x20000000, Type = 0xFFFFFFF2)  returns 0x00000005 (0001ms, 0650ms total)
T10D4 000:914 JLINK_Go() (0001ms, 0651ms total)
T10D4 000:915 JLINK_IsHalted()  returns FALSE (0000ms, 0651ms total)
T10D4 000:928 JLINK_IsHalted()  returns FALSE (0000ms, 0651ms total)
T10D4 000:930 JLINK_IsHalted()  returns FALSE (0000ms, 0651ms total)
T10D4 000:937 JLINK_IsHalted()  returns FALSE (0000ms, 0651ms total)
T10D4 000:941 JLINK_IsHalted()  returns FALSE (0000ms, 0651ms total)
T10D4 000:943 JLINK_IsHalted()  returns FALSE (0000ms, 0651ms total)
T10D4 000:945 JLINK_IsHalted()  returns FALSE (0000ms, 0651ms total)
T10D4 000:949 JLINK_IsHalted() -- CPU_ReadMem(2 bytes @ 0x20000000)  returns TRUE (0003ms, 0654ms total)
T10D4 000:952 JLINK_ReadReg(R15 (PC))  returns 0x20000000 (0000ms, 0651ms total)
T10D4 000:952 JLINK_ClrBPEx(BPHandle = 0x00000005)  returns 0x00 (0000ms, 0651ms total)
T10D4 000:952 JLINK_ReadReg(R0)  returns 0x00000000 (0001ms, 0652ms total)
T10D4 000:953 JLINK_WriteMem(0x20000164, 0x0400 Bytes, ...) - Data: 79 FF 10 21 43 F2 21 60 01 F0 74 FF B0 21 00 E0 ... -- CPU_WriteMem(1024 bytes @ 0x20000164)  returns 0x400 (0008ms, 0660ms total)
T10D4 000:961 JLINK_WriteReg(R0, 0x08000400)  returns 0x00 (0000ms, 0660ms total)
T10D4 000:961 JLINK_WriteReg(R1, 0x00000400)  returns 0x00 (0000ms, 0660ms total)
T10D4 000:961 JLINK_WriteReg(R2, 0x20000164)  returns 0x00 (0001ms, 0661ms total)
T10D4 000:962 JLINK_WriteReg(R3, 0x00000000)  returns 0x00 (0000ms, 0661ms total)
T10D4 000:962 JLINK_WriteReg(R4, 0x00000000)  returns 0x00 (0000ms, 0661ms total)
T10D4 000:962 JLINK_WriteReg(R5, 0x00000000)  returns 0x00 (0000ms, 0661ms total)
T10D4 000:962 JLINK_WriteReg(R6, 0x00000000)  returns 0x00 (0000ms, 0661ms total)
T10D4 000:962 JLINK_WriteReg(R7, 0x00000000)  returns 0x00 (0000ms, 0661ms total)
T10D4 000:962 JLINK_WriteReg(R8, 0x00000000)  returns 0x00 (0000ms, 0661ms total)
T10D4 000:962 JLINK_WriteReg(R9, 0x20000160)  returns 0x00 (0000ms, 0661ms total)
T10D4 000:962 JLINK_WriteReg(R10, 0x00000000)  returns 0x00 (0000ms, 0661ms total)
T10D4 000:962 JLINK_WriteReg(R11, 0x00000000)  returns 0x00 (0000ms, 0661ms total)
T10D4 000:962 JLINK_WriteReg(R12, 0x00000000)  returns 0x00 (0000ms, 0661ms total)
T10D4 000:962 JLINK_WriteReg(R13 (SP), 0x20001000)  returns 0x00 (0000ms, 0661ms total)
T10D4 000:962 JLINK_WriteReg(R14, 0x20000001)  returns 0x00 (0000ms, 0661ms total)
T10D4 000:962 JLINK_WriteReg(R15 (PC), 0x200000F4)  returns 0x00 (0001ms, 0662ms total)
T10D4 000:963 JLINK_WriteReg(XPSR, 0x01000000)  returns 0x00 (0000ms, 0662ms total)
T10D4 000:963 JLINK_WriteReg(MSP, 0x20001000)  returns 0x00 (0000ms, 0662ms total)
T10D4 000:963 JLINK_WriteReg(PSP, 0x20001000)  returns 0x00 (0000ms, 0662ms total)
T10D4 000:963 JLINK_WriteReg(CFBP, 0x00000000)  returns 0x00 (0000ms, 0662ms total)
T10D4 000:963 JLINK_SetBPEx(Addr = 0x20000000, Type = 0xFFFFFFF2)  returns 0x00000006 (0000ms, 0662ms total)
T10D4 000:963 JLINK_Go() (0001ms, 0663ms total)
T10D4 000:964 JLINK_IsHalted()  returns FALSE (0001ms, 0664ms total)
T10D4 000:970 JLINK_IsHalted()  returns FALSE (0000ms, 0663ms total)
T10D4 000:974 JLINK_IsHalted()  returns FALSE (0000ms, 0663ms total)
T10D4 000:976 JLINK_IsHalted()  returns FALSE (0000ms, 0663ms total)
T10D4 000:978 JLINK_IsHalted()  returns FALSE (0000ms, 0663ms total)
T10D4 000:982 JLINK_IsHalted()  returns FALSE (0000ms, 0663ms total)
T10D4 000:984 JLINK_IsHalted()  returns FALSE (0000ms, 0663ms total)
T10D4 000:986 JLINK_IsHalted()  returns FALSE (0000ms, 0663ms total)
T10D4 000:990 JLINK_IsHalted()  returns FALSE (0000ms, 0663ms total)
T10D4 000:992 JLINK_IsHalted()  returns FALSE (0000ms, 0663ms total)
T10D4 000:994 JLINK_IsHalted()  returns FALSE (0000ms, 0663ms total)
T10D4 000:998 JLINK_IsHalted() -- CPU_ReadMem(2 bytes @ 0x20000000)  returns TRUE (0003ms, 0666ms total)
T10D4 001:001 JLINK_ReadReg(R15 (PC))  returns 0x20000000 (0001ms, 0664ms total)
T10D4 001:002 JLINK_ClrBPEx(BPHandle = 0x00000006)  returns 0x00 (0000ms, 0664ms total)
T10D4 001:002 JLINK_ReadReg(R0)  returns 0x00000000 (0000ms, 0664ms total)
T10D4 001:002 JLINK_WriteMem(0x20000164, 0x0400 Bytes, ...) - Data: 06 78 A1 55 04 78 04 F0 1F 05 01 24 AC 40 05 78 ... -- CPU_WriteMem(1024 bytes @ 0x20000164)  returns 0x400 (0008ms, 0672ms total)
T10D4 001:010 JLINK_WriteReg(R0, 0x08000800)  returns 0x00 (0001ms, 0673ms total)
T10D4 001:011 JLINK_WriteReg(R1, 0x00000400)  returns 0x00 (0000ms, 0673ms total)
T10D4 001:011 JLINK_WriteReg(R2, 0x20000164)  returns 0x00 (0000ms, 0673ms total)
T10D4 001:011 JLINK_WriteReg(R3, 0x00000000)  returns 0x00 (0000ms, 0673ms total)
T10D4 001:011 JLINK_WriteReg(R4, 0x00000000)  returns 0x00 (0000ms, 0673ms total)
T10D4 001:011 JLINK_WriteReg(R5, 0x00000000)  returns 0x00 (0000ms, 0673ms total)
T10D4 001:011 JLINK_WriteReg(R6, 0x00000000)  returns 0x00 (0000ms, 0673ms total)
T10D4 001:011 JLINK_WriteReg(R7, 0x00000000)  returns 0x00 (0000ms, 0673ms total)
T10D4 001:011 JLINK_WriteReg(R8, 0x00000000)  returns 0x00 (0000ms, 0673ms total)
T10D4 001:011 JLINK_WriteReg(R9, 0x20000160)  returns 0x00 (0000ms, 0673ms total)
T10D4 001:011 JLINK_WriteReg(R10, 0x00000000)  returns 0x00 (0000ms, 0673ms total)
T10D4 001:011 JLINK_WriteReg(R11, 0x00000000)  returns 0x00 (0000ms, 0673ms total)
T10D4 001:011 JLINK_WriteReg(R12, 0x00000000)  returns 0x00 (0000ms, 0673ms total)
T10D4 001:011 JLINK_WriteReg(R13 (SP), 0x20001000)  returns 0x00 (0001ms, 0674ms total)
T10D4 001:012 JLINK_WriteReg(R14, 0x20000001)  returns 0x00 (0000ms, 0674ms total)
T10D4 001:012 JLINK_WriteReg(R15 (PC), 0x200000F4)  returns 0x00 (0000ms, 0674ms total)
T10D4 001:012 JLINK_WriteReg(XPSR, 0x01000000)  returns 0x00 (0000ms, 0674ms total)
T10D4 001:012 JLINK_WriteReg(MSP, 0x20001000)  returns 0x00 (0000ms, 0674ms total)
T10D4 001:012 JLINK_WriteReg(PSP, 0x20001000)  returns 0x00 (0000ms, 0674ms total)
T10D4 001:012 JLINK_WriteReg(CFBP, 0x00000000)  returns 0x00 (0000ms, 0674ms total)
T10D4 001:012 JLINK_SetBPEx(Addr = 0x20000000, Type = 0xFFFFFFF2)  returns 0x00000007 (0000ms, 0674ms total)
T10D4 001:012 JLINK_Go() (0002ms, 0676ms total)
T10D4 001:014 JLINK_IsHalted()  returns FALSE (0000ms, 0676ms total)
T10D4 001:018 JLINK_IsHalted()  returns FALSE (0000ms, 0676ms total)
T10D4 001:022 JLINK_IsHalted()  returns FALSE (0000ms, 0676ms total)
T10D4 001:024 JLINK_IsHalted()  returns FALSE (0000ms, 0676ms total)
T10D4 001:026 JLINK_IsHalted()  returns FALSE (0000ms, 0676ms total)
T10D4 001:030 JLINK_IsHalted()  returns FALSE (0000ms, 0676ms total)
T10D4 001:032 JLINK_IsHalted()  returns FALSE (0000ms, 0676ms total)
T10D4 001:034 JLINK_IsHalted()  returns FALSE (0000ms, 0676ms total)
T10D4 001:038 JLINK_IsHalted()  returns FALSE (0000ms, 0676ms total)
T10D4 001:040 JLINK_IsHalted()  returns FALSE (0000ms, 0676ms total)
T10D4 001:047 JLINK_IsHalted() -- CPU_ReadMem(2 bytes @ 0x20000000)  returns TRUE (0003ms, 0679ms total)
T10D4 001:050 JLINK_ReadReg(R15 (PC))  returns 0x20000000 (0000ms, 0676ms total)
T10D4 001:050 JLINK_ClrBPEx(BPHandle = 0x00000007)  returns 0x00 (0000ms, 0676ms total)
T10D4 001:050 JLINK_ReadReg(R0)  returns 0x00000000 (0001ms, 0677ms total)
T10D4 001:051 JLINK_WriteMem(0x20000164, 0x0400 Bytes, ...) - Data: 8D F8 06 00 01 20 8D F8 07 00 01 A8 FF F7 E0 FD ... -- CPU_WriteMem(1024 bytes @ 0x20000164)  returns 0x400 (0008ms, 0685ms total)
T10D4 001:059 JLINK_WriteReg(R0, 0x08000C00)  returns 0x00 (0000ms, 0685ms total)
T10D4 001:059 JLINK_WriteReg(R1, 0x00000400)  returns 0x00 (0000ms, 0685ms total)
T10D4 001:059 JLINK_WriteReg(R2, 0x20000164)  returns 0x00 (0001ms, 0686ms total)
T10D4 001:060 JLINK_WriteReg(R3, 0x00000000)  returns 0x00 (0000ms, 0686ms total)
T10D4 001:060 JLINK_WriteReg(R4, 0x00000000)  returns 0x00 (0000ms, 0686ms total)
T10D4 001:060 JLINK_WriteReg(R5, 0x00000000)  returns 0x00 (0000ms, 0686ms total)
T10D4 001:060 JLINK_WriteReg(R6, 0x00000000)  returns 0x00 (0000ms, 0686ms total)
T10D4 001:060 JLINK_WriteReg(R7, 0x00000000)  returns 0x00 (0000ms, 0686ms total)
T10D4 001:060 JLINK_WriteReg(R8, 0x00000000)  returns 0x00 (0000ms, 0686ms total)
T10D4 001:060 JLINK_WriteReg(R9, 0x20000160)  returns 0x00 (0000ms, 0686ms total)
T10D4 001:060 JLINK_WriteReg(R10, 0x00000000)  returns 0x00 (0000ms, 0686ms total)
T10D4 001:060 JLINK_WriteReg(R11, 0x00000000)  returns 0x00 (0000ms, 0686ms total)
T10D4 001:060 JLINK_WriteReg(R12, 0x00000000)  returns 0x00 (0000ms, 0686ms total)
T10D4 001:060 JLINK_WriteReg(R13 (SP), 0x20001000)  returns 0x00 (0000ms, 0686ms total)
T10D4 001:060 JLINK_WriteReg(R14, 0x20000001)  returns 0x00 (0000ms, 0686ms total)
T10D4 001:060 JLINK_WriteReg(R15 (PC), 0x200000F4)  returns 0x00 (0000ms, 0686ms total)
T10D4 001:061 JLINK_WriteReg(XPSR, 0x01000000)  returns 0x00 (0000ms, 0687ms total)
T10D4 001:061 JLINK_WriteReg(MSP, 0x20001000)  returns 0x00 (0000ms, 0687ms total)
T10D4 001:061 JLINK_WriteReg(PSP, 0x20001000)  returns 0x00 (0000ms, 0687ms total)
T10D4 001:061 JLINK_WriteReg(CFBP, 0x00000000)  returns 0x00 (0000ms, 0687ms total)
T10D4 001:061 JLINK_SetBPEx(Addr = 0x20000000, Type = 0xFFFFFFF2)  returns 0x00000008 (0000ms, 0687ms total)
T10D4 001:061 JLINK_Go() (0001ms, 0688ms total)
T10D4 001:062 JLINK_IsHalted()  returns FALSE (0001ms, 0689ms total)
T10D4 001:068 JLINK_IsHalted()  returns FALSE (0000ms, 0688ms total)
T10D4 001:070 JLINK_IsHalted()  returns FALSE (0000ms, 0688ms total)
T10D4 001:072 JLINK_IsHalted()  returns FALSE (0000ms, 0688ms total)
T10D4 001:074 JLINK_IsHalted()  returns FALSE (0000ms, 0688ms total)
T10D4 001:078 JLINK_IsHalted()  returns FALSE (0000ms, 0688ms total)
T10D4 001:080 JLINK_IsHalted()  returns FALSE (0000ms, 0688ms total)
T10D4 001:082 JLINK_IsHalted()  returns FALSE (0000ms, 0688ms total)
T10D4 001:086 JLINK_IsHalted()  returns FALSE (0000ms, 0688ms total)
T10D4 001:088 JLINK_IsHalted()  returns FALSE (0000ms, 0688ms total)
T10D4 001:090 JLINK_IsHalted()  returns FALSE (0000ms, 0688ms total)
T10D4 001:094 JLINK_IsHalted() -- CPU_ReadMem(2 bytes @ 0x20000000)  returns TRUE (0003ms, 0691ms total)
T10D4 001:097 JLINK_ReadReg(R15 (PC))  returns 0x20000000 (0000ms, 0688ms total)
T10D4 001:097 JLINK_ClrBPEx(BPHandle = 0x00000008)  returns 0x00 (0000ms, 0688ms total)
T10D4 001:097 JLINK_ReadReg(R0)  returns 0x00000000 (0001ms, 0689ms total)
T10D4 001:098 JLINK_WriteMem(0x20000164, 0x0400 Bytes, ...) - Data: 15 48 00 F0 E8 F9 0F 20 00 F0 60 FA 64 1C B4 F5 ... -- CPU_WriteMem(1024 bytes @ 0x20000164)  returns 0x400 (0008ms, 0697ms total)
T10D4 001:106 JLINK_WriteReg(R0, 0x08001000)  returns 0x00 (0000ms, 0697ms total)
T10D4 001:106 JLINK_WriteReg(R1, 0x00000400)  returns 0x00 (0000ms, 0697ms total)
T10D4 001:106 JLINK_WriteReg(R2, 0x20000164)  returns 0x00 (0001ms, 0698ms total)
T10D4 001:107 JLINK_WriteReg(R3, 0x00000000)  returns 0x00 (0000ms, 0698ms total)
T10D4 001:107 JLINK_WriteReg(R4, 0x00000000)  returns 0x00 (0000ms, 0698ms total)
T10D4 001:107 JLINK_WriteReg(R5, 0x00000000)  returns 0x00 (0000ms, 0698ms total)
T10D4 001:107 JLINK_WriteReg(R6, 0x00000000)  returns 0x00 (0000ms, 0698ms total)
T10D4 001:107 JLINK_WriteReg(R7, 0x00000000)  returns 0x00 (0000ms, 0698ms total)
T10D4 001:107 JLINK_WriteReg(R8, 0x00000000)  returns 0x00 (0000ms, 0698ms total)
T10D4 001:107 JLINK_WriteReg(R9, 0x20000160)  returns 0x00 (0000ms, 0698ms total)
T10D4 001:107 JLINK_WriteReg(R10, 0x00000000)  returns 0x00 (0000ms, 0698ms total)
T10D4 001:107 JLINK_WriteReg(R11, 0x00000000)  returns 0x00 (0000ms, 0698ms total)
T10D4 001:107 JLINK_WriteReg(R12, 0x00000000)  returns 0x00 (0000ms, 0698ms total)
T10D4 001:107 JLINK_WriteReg(R13 (SP), 0x20001000)  returns 0x00 (0000ms, 0698ms total)
T10D4 001:107 JLINK_WriteReg(R14, 0x20000001)  returns 0x00 (0000ms, 0698ms total)
T10D4 001:107 JLINK_WriteReg(R15 (PC), 0x200000F4)  returns 0x00 (0000ms, 0698ms total)
T10D4 001:107 JLINK_WriteReg(XPSR, 0x01000000)  returns 0x00 (0000ms, 0698ms total)
T10D4 001:107 JLINK_WriteReg(MSP, 0x20001000)  returns 0x00 (0001ms, 0699ms total)
T10D4 001:108 JLINK_WriteReg(PSP, 0x20001000)  returns 0x00 (0000ms, 0699ms total)
T10D4 001:108 JLINK_WriteReg(CFBP, 0x00000000)  returns 0x00 (0000ms, 0699ms total)
T10D4 001:108 JLINK_SetBPEx(Addr = 0x20000000, Type = 0xFFFFFFF2)  returns 0x00000009 (0000ms, 0699ms total)
T10D4 001:108 JLINK_Go() (0001ms, 0700ms total)
T10D4 001:109 JLINK_IsHalted()  returns FALSE (0001ms, 0701ms total)
T10D4 001:114 JLINK_IsHalted()  returns FALSE (0000ms, 0700ms total)
T10D4 001:118 JLINK_IsHalted()  returns FALSE (0000ms, 0700ms total)
T10D4 001:120 JLINK_IsHalted()  returns FALSE (0000ms, 0700ms total)
T10D4 001:122 JLINK_IsHalted()  returns FALSE (0000ms, 0700ms total)
T10D4 001:127 JLINK_IsHalted()  returns FALSE (0000ms, 0700ms total)
T10D4 001:129 JLINK_IsHalted()  returns FALSE (0000ms, 0700ms total)
T10D4 001:133 JLINK_IsHalted()  returns FALSE (0000ms, 0700ms total)
T10D4 001:135 JLINK_IsHalted()  returns FALSE (0000ms, 0700ms total)
T10D4 001:137 JLINK_IsHalted()  returns FALSE (0000ms, 0700ms total)
T10D4 001:141 JLINK_IsHalted() -- CPU_ReadMem(2 bytes @ 0x20000000)  returns TRUE (0003ms, 0703ms total)
T10D4 001:144 JLINK_ReadReg(R15 (PC))  returns 0x20000000 (0000ms, 0700ms total)
T10D4 001:144 JLINK_ClrBPEx(BPHandle = 0x00000009)  returns 0x00 (0000ms, 0700ms total)
T10D4 001:144 JLINK_ReadReg(R0)  returns 0x00000000 (0001ms, 0701ms total)
T10D4 001:145 JLINK_WriteMem(0x20000164, 0x0400 Bytes, ...) - Data: 28 46 70 BD 70 B5 04 46 0D 46 FF F7 8B F8 0A 20 ... -- CPU_WriteMem(1024 bytes @ 0x20000164)  returns 0x400 (0008ms, 0709ms total)
T10D4 001:153 JLINK_WriteReg(R0, 0x08001400)  returns 0x00 (0000ms, 0709ms total)
T10D4 001:153 JLINK_WriteReg(R1, 0x00000400)  returns 0x00 (0000ms, 0709ms total)
T10D4 001:154 JLINK_WriteReg(R2, 0x20000164)  returns 0x00 (0000ms, 0710ms total)
T10D4 001:154 JLINK_WriteReg(R3, 0x00000000)  returns 0x00 (0000ms, 0710ms total)
T10D4 001:154 JLINK_WriteReg(R4, 0x00000000)  returns 0x00 (0000ms, 0710ms total)
T10D4 001:154 JLINK_WriteReg(R5, 0x00000000)  returns 0x00 (0000ms, 0710ms total)
T10D4 001:154 JLINK_WriteReg(R6, 0x00000000)  returns 0x00 (0000ms, 0710ms total)
T10D4 001:154 JLINK_WriteReg(R7, 0x00000000)  returns 0x00 (0000ms, 0710ms total)
T10D4 001:154 JLINK_WriteReg(R8, 0x00000000)  returns 0x00 (0000ms, 0710ms total)
T10D4 001:154 JLINK_WriteReg(R9, 0x20000160)  returns 0x00 (0000ms, 0710ms total)
T10D4 001:154 JLINK_WriteReg(R10, 0x00000000)  returns 0x00 (0000ms, 0710ms total)
T10D4 001:154 JLINK_WriteReg(R11, 0x00000000)  returns 0x00 (0000ms, 0710ms total)
T10D4 001:154 JLINK_WriteReg(R12, 0x00000000)  returns 0x00 (0000ms, 0710ms total)
T10D4 001:154 JLINK_WriteReg(R13 (SP), 0x20001000)  returns 0x00 (0000ms, 0710ms total)
T10D4 001:154 JLINK_WriteReg(R14, 0x20000001)  returns 0x00 (0000ms, 0710ms total)
T10D4 001:154 JLINK_WriteReg(R15 (PC), 0x200000F4)  returns 0x00 (0001ms, 0711ms total)
T10D4 001:155 JLINK_WriteReg(XPSR, 0x01000000)  returns 0x00 (0000ms, 0711ms total)
T10D4 001:155 JLINK_WriteReg(MSP, 0x20001000)  returns 0x00 (0000ms, 0711ms total)
T10D4 001:155 JLINK_WriteReg(PSP, 0x20001000)  returns 0x00 (0000ms, 0711ms total)
T10D4 001:155 JLINK_WriteReg(CFBP, 0x00000000)  returns 0x00 (0000ms, 0711ms total)
T10D4 001:155 JLINK_SetBPEx(Addr = 0x20000000, Type = 0xFFFFFFF2)  returns 0x0000000A (0000ms, 0711ms total)
T10D4 001:155 JLINK_Go() (0001ms, 0712ms total)
T10D4 001:156 JLINK_IsHalted()  returns FALSE (0001ms, 0713ms total)
T10D4 001:164 JLINK_IsHalted()  returns FALSE (0000ms, 0712ms total)
T10D4 001:166 JLINK_IsHalted()  returns FALSE (0000ms, 0712ms total)
T10D4 001:168 JLINK_IsHalted()  returns FALSE (0000ms, 0712ms total)
T10D4 001:174 JLINK_IsHalted()  returns FALSE (0000ms, 0712ms total)
T10D4 001:176 JLINK_IsHalted()  returns FALSE (0000ms, 0712ms total)
T10D4 001:178 JLINK_IsHalted()  returns FALSE (0000ms, 0712ms total)
T10D4 001:182 JLINK_IsHalted()  returns FALSE (0000ms, 0712ms total)
T10D4 001:184 JLINK_IsHalted()  returns FALSE (0000ms, 0712ms total)
T10D4 001:186 JLINK_IsHalted()  returns FALSE (0000ms, 0712ms total)
T10D4 001:190 JLINK_IsHalted() -- CPU_ReadMem(2 bytes @ 0x20000000)  returns TRUE (0003ms, 0715ms total)
T10D4 001:193 JLINK_ReadReg(R15 (PC))  returns 0x20000000 (0000ms, 0712ms total)
T10D4 001:193 JLINK_ClrBPEx(BPHandle = 0x0000000A)  returns 0x00 (0000ms, 0712ms total)
T10D4 001:193 JLINK_ReadReg(R0)  returns 0x00000000 (0001ms, 0713ms total)
T10D4 001:194 JLINK_WriteMem(0x20000164, 0x0400 Bytes, ...) - Data: E5 FC 14 E0 43 48 00 78 0B 28 06 D1 04 20 FF F7 ... -- CPU_WriteMem(1024 bytes @ 0x20000164)  returns 0x400 (0008ms, 0721ms total)
T10D4 001:202 JLINK_WriteReg(R0, 0x08001800)  returns 0x00 (0000ms, 0721ms total)
T10D4 001:202 JLINK_WriteReg(R1, 0x00000400)  returns 0x00 (0000ms, 0721ms total)
T10D4 001:203 JLINK_WriteReg(R2, 0x20000164)  returns 0x00 (0000ms, 0722ms total)
T10D4 001:203 JLINK_WriteReg(R3, 0x00000000)  returns 0x00 (0000ms, 0722ms total)
T10D4 001:203 JLINK_WriteReg(R4, 0x00000000)  returns 0x00 (0000ms, 0722ms total)
T10D4 001:203 JLINK_WriteReg(R5, 0x00000000)  returns 0x00 (0000ms, 0722ms total)
T10D4 001:203 JLINK_WriteReg(R6, 0x00000000)  returns 0x00 (0000ms, 0722ms total)
T10D4 001:203 JLINK_WriteReg(R7, 0x00000000)  returns 0x00 (0000ms, 0722ms total)
T10D4 001:203 JLINK_WriteReg(R8, 0x00000000)  returns 0x00 (0000ms, 0722ms total)
T10D4 001:203 JLINK_WriteReg(R9, 0x20000160)  returns 0x00 (0000ms, 0722ms total)
T10D4 001:203 JLINK_WriteReg(R10, 0x00000000)  returns 0x00 (0000ms, 0722ms total)
T10D4 001:203 JLINK_WriteReg(R11, 0x00000000)  returns 0x00 (0000ms, 0722ms total)
T10D4 001:203 JLINK_WriteReg(R12, 0x00000000)  returns 0x00 (0000ms, 0722ms total)
T10D4 001:203 JLINK_WriteReg(R13 (SP), 0x20001000)  returns 0x00 (0000ms, 0722ms total)
T10D4 001:203 JLINK_WriteReg(R14, 0x20000001)  returns 0x00 (0000ms, 0722ms total)
T10D4 001:203 JLINK_WriteReg(R15 (PC), 0x200000F4)  returns 0x00 (0001ms, 0723ms total)
T10D4 001:204 JLINK_WriteReg(XPSR, 0x01000000)  returns 0x00 (0000ms, 0723ms total)
T10D4 001:204 JLINK_WriteReg(MSP, 0x20001000)  returns 0x00 (0000ms, 0723ms total)
T10D4 001:204 JLINK_WriteReg(PSP, 0x20001000)  returns 0x00 (0000ms, 0723ms total)
T10D4 001:204 JLINK_WriteReg(CFBP, 0x00000000)  returns 0x00 (0000ms, 0723ms total)
T10D4 001:204 JLINK_SetBPEx(Addr = 0x20000000, Type = 0xFFFFFFF2)  returns 0x0000000B (0000ms, 0723ms total)
T10D4 001:204 JLINK_Go() (0001ms, 0724ms total)
T10D4 001:205 JLINK_IsHalted()  returns FALSE (0001ms, 0725ms total)
T10D4 001:209 JLINK_IsHalted()  returns FALSE (0000ms, 0724ms total)
T10D4 001:213 JLINK_IsHalted()  returns FALSE (0000ms, 0724ms total)
T10D4 001:217 JLINK_IsHalted()  returns FALSE (0000ms, 0724ms total)
T10D4 001:221 JLINK_IsHalted()  returns FALSE (0000ms, 0724ms total)
T10D4 001:223 JLINK_IsHalted()  returns FALSE (0000ms, 0724ms total)
T10D4 001:225 JLINK_IsHalted()  returns FALSE (0000ms, 0724ms total)
T10D4 001:229 JLINK_IsHalted()  returns FALSE (0000ms, 0724ms total)
T10D4 001:231 JLINK_IsHalted()  returns FALSE (0000ms, 0724ms total)
T10D4 001:233 JLINK_IsHalted()  returns FALSE (0000ms, 0724ms total)
T10D4 001:237 JLINK_IsHalted() -- CPU_ReadMem(2 bytes @ 0x20000000)  returns TRUE (0003ms, 0727ms total)
T10D4 001:240 JLINK_ReadReg(R15 (PC))  returns 0x20000000 (0000ms, 0724ms total)
T10D4 001:240 JLINK_ClrBPEx(BPHandle = 0x0000000B)  returns 0x00 (0000ms, 0724ms total)
T10D4 001:241 JLINK_ReadReg(R0)  returns 0x00000000 (0000ms, 0725ms total)
T10D4 001:241 JLINK_WriteMem(0x20000164, 0x0400 Bytes, ...) - Data: 41 43 4B 20 43 4D 44 20 73 77 69 74 63 68 20 74 ... -- CPU_WriteMem(1024 bytes @ 0x20000164)  returns 0x400 (0008ms, 0733ms total)
T10D4 001:249 JLINK_WriteReg(R0, 0x08001C00)  returns 0x00 (0000ms, 0733ms total)
T10D4 001:249 JLINK_WriteReg(R1, 0x00000400)  returns 0x00 (0000ms, 0733ms total)
T10D4 001:249 JLINK_WriteReg(R2, 0x20000164)  returns 0x00 (0001ms, 0734ms total)
T10D4 001:250 JLINK_WriteReg(R3, 0x00000000)  returns 0x00 (0000ms, 0734ms total)
T10D4 001:250 JLINK_WriteReg(R4, 0x00000000)  returns 0x00 (0000ms, 0734ms total)
T10D4 001:250 JLINK_WriteReg(R5, 0x00000000)  returns 0x00 (0000ms, 0734ms total)
T10D4 001:250 JLINK_WriteReg(R6, 0x00000000)  returns 0x00 (0000ms, 0734ms total)
T10D4 001:250 JLINK_WriteReg(R7, 0x00000000)  returns 0x00 (0000ms, 0734ms total)
T10D4 001:250 JLINK_WriteReg(R8, 0x00000000)  returns 0x00 (0000ms, 0734ms total)
T10D4 001:250 JLINK_WriteReg(R9, 0x20000160)  returns 0x00 (0000ms, 0734ms total)
T10D4 001:250 JLINK_WriteReg(R10, 0x00000000)  returns 0x00 (0000ms, 0734ms total)
T10D4 001:250 JLINK_WriteReg(R11, 0x00000000)  returns 0x00 (0000ms, 0734ms total)
T10D4 001:250 JLINK_WriteReg(R12, 0x00000000)  returns 0x00 (0000ms, 0734ms total)
T10D4 001:250 JLINK_WriteReg(R13 (SP), 0x20001000)  returns 0x00 (0000ms, 0734ms total)
T10D4 001:250 JLINK_WriteReg(R14, 0x20000001)  returns 0x00 (0000ms, 0734ms total)
T10D4 001:250 JLINK_WriteReg(R15 (PC), 0x200000F4)  returns 0x00 (0001ms, 0735ms total)
T10D4 001:251 JLINK_WriteReg(XPSR, 0x01000000)  returns 0x00 (0000ms, 0735ms total)
T10D4 001:251 JLINK_WriteReg(MSP, 0x20001000)  returns 0x00 (0000ms, 0735ms total)
T10D4 001:251 JLINK_WriteReg(PSP, 0x20001000)  returns 0x00 (0000ms, 0735ms total)
T10D4 001:251 JLINK_WriteReg(CFBP, 0x00000000)  returns 0x00 (0000ms, 0735ms total)
T10D4 001:251 JLINK_SetBPEx(Addr = 0x20000000, Type = 0xFFFFFFF2)  returns 0x0000000C (0000ms, 0735ms total)
T10D4 001:251 JLINK_Go() (0001ms, 0736ms total)
T10D4 001:252 JLINK_IsHalted()  returns FALSE (0001ms, 0737ms total)
T10D4 001:257 JLINK_IsHalted()  returns FALSE (0000ms, 0736ms total)
T10D4 001:265 JLINK_IsHalted()  returns FALSE (0000ms, 0736ms total)
T10D4 001:269 JLINK_IsHalted()  returns FALSE (0000ms, 0736ms total)
T10D4 001:271 JLINK_IsHalted()  returns FALSE (0000ms, 0736ms total)
T10D4 001:273 JLINK_IsHalted()  returns FALSE (0000ms, 0736ms total)
T10D4 001:278 JLINK_IsHalted()  returns FALSE (0000ms, 0736ms total)
T10D4 001:280 JLINK_IsHalted()  returns FALSE (0000ms, 0736ms total)
T10D4 001:282 JLINK_IsHalted()  returns FALSE (0000ms, 0736ms total)
T10D4 001:286 JLINK_IsHalted() -- CPU_ReadMem(2 bytes @ 0x20000000)  returns TRUE (0003ms, 0739ms total)
T10D4 001:289 JLINK_ReadReg(R15 (PC))  returns 0x20000000 (0000ms, 0736ms total)
T10D4 001:289 JLINK_ClrBPEx(BPHandle = 0x0000000C)  returns 0x00 (0001ms, 0737ms total)
T10D4 001:290 JLINK_ReadReg(R0)  returns 0x00000000 (0000ms, 0737ms total)
T10D4 001:290 JLINK_WriteMem(0x20000164, 0x0400 Bytes, ...) - Data: 09 F9 18 B9 00 F0 EC F8 03 20 E1 E7 0A 20 FF F7 ... -- CPU_WriteMem(1024 bytes @ 0x20000164)  returns 0x400 (0008ms, 0745ms total)
T10D4 001:298 JLINK_WriteReg(R0, 0x08002000)  returns 0x00 (0000ms, 0745ms total)
T10D4 001:298 JLINK_WriteReg(R1, 0x00000400)  returns 0x00 (0001ms, 0746ms total)
T10D4 001:299 JLINK_WriteReg(R2, 0x20000164)  returns 0x00 (0000ms, 0746ms total)
T10D4 001:299 JLINK_WriteReg(R3, 0x00000000)  returns 0x00 (0000ms, 0746ms total)
T10D4 001:299 JLINK_WriteReg(R4, 0x00000000)  returns 0x00 (0000ms, 0746ms total)
T10D4 001:299 JLINK_WriteReg(R5, 0x00000000)  returns 0x00 (0000ms, 0746ms total)
T10D4 001:299 JLINK_WriteReg(R6, 0x00000000)  returns 0x00 (0000ms, 0746ms total)
T10D4 001:299 JLINK_WriteReg(R7, 0x00000000)  returns 0x00 (0000ms, 0746ms total)
T10D4 001:299 JLINK_WriteReg(R8, 0x00000000)  returns 0x00 (0000ms, 0746ms total)
T10D4 001:299 JLINK_WriteReg(R9, 0x20000160)  returns 0x00 (0000ms, 0746ms total)
T10D4 001:299 JLINK_WriteReg(R10, 0x00000000)  returns 0x00 (0000ms, 0746ms total)
T10D4 001:299 JLINK_WriteReg(R11, 0x00000000)  returns 0x00 (0000ms, 0746ms total)
T10D4 001:299 JLINK_WriteReg(R12, 0x00000000)  returns 0x00 (0000ms, 0746ms total)
T10D4 001:299 JLINK_WriteReg(R13 (SP), 0x20001000)  returns 0x00 (0000ms, 0746ms total)
T10D4 001:300 JLINK_WriteReg(R14, 0x20000001)  returns 0x00 (0000ms, 0747ms total)
T10D4 001:300 JLINK_WriteReg(R15 (PC), 0x200000F4)  returns 0x00 (0000ms, 0747ms total)
T10D4 001:300 JLINK_WriteReg(XPSR, 0x01000000)  returns 0x00 (0000ms, 0747ms total)
T10D4 001:300 JLINK_WriteReg(MSP, 0x20001000)  returns 0x00 (0000ms, 0747ms total)
T10D4 001:300 JLINK_WriteReg(PSP, 0x20001000)  returns 0x00 (0000ms, 0747ms total)
T10D4 001:300 JLINK_WriteReg(CFBP, 0x00000000)  returns 0x00 (0000ms, 0747ms total)
T10D4 001:300 JLINK_SetBPEx(Addr = 0x20000000, Type = 0xFFFFFFF2)  returns 0x0000000D (0000ms, 0747ms total)
T10D4 001:300 JLINK_Go() (0001ms, 0748ms total)
T10D4 001:302 JLINK_IsHalted()  returns FALSE (0000ms, 0748ms total)
T10D4 001:306 JLINK_IsHalted()  returns FALSE (0000ms, 0748ms total)
T10D4 001:310 JLINK_IsHalted()  returns FALSE (0000ms, 0748ms total)
T10D4 001:312 JLINK_IsHalted()  returns FALSE (0000ms, 0748ms total)
T10D4 001:314 JLINK_IsHalted()  returns FALSE (0000ms, 0748ms total)
T10D4 001:318 JLINK_IsHalted()  returns FALSE (0000ms, 0748ms total)
T10D4 001:320 JLINK_IsHalted()  returns FALSE (0000ms, 0748ms total)
T10D4 001:322 JLINK_IsHalted()  returns FALSE (0000ms, 0748ms total)
T10D4 001:327 JLINK_IsHalted()  returns FALSE (0000ms, 0748ms total)
T10D4 001:329 JLINK_IsHalted()  returns FALSE (0000ms, 0748ms total)
T10D4 001:333 JLINK_IsHalted() -- CPU_ReadMem(2 bytes @ 0x20000000)  returns TRUE (0003ms, 0751ms total)
T10D4 001:336 JLINK_ReadReg(R15 (PC))  returns 0x20000000 (0000ms, 0748ms total)
T10D4 001:336 JLINK_ClrBPEx(BPHandle = 0x0000000D)  returns 0x00 (0000ms, 0748ms total)
T10D4 001:337 JLINK_ReadReg(R0)  returns 0x00000000 (0000ms, 0749ms total)
T10D4 001:339 JLINK_WriteMem(0x20000164, 0x0400 Bytes, ...) - Data: F0 41 05 46 4F F0 00 08 00 26 00 27 2C 46 0A E0 ... -- CPU_WriteMem(1024 bytes @ 0x20000164)  returns 0x400 (0008ms, 0757ms total)
T10D4 001:347 JLINK_WriteReg(R0, 0x08002400)  returns 0x00 (0000ms, 0757ms total)
T10D4 001:347 JLINK_WriteReg(R1, 0x00000400)  returns 0x00 (0000ms, 0757ms total)
T10D4 001:347 JLINK_WriteReg(R2, 0x20000164)  returns 0x00 (0000ms, 0757ms total)
T10D4 001:347 JLINK_WriteReg(R3, 0x00000000)  returns 0x00 (0000ms, 0757ms total)
T10D4 001:347 JLINK_WriteReg(R4, 0x00000000)  returns 0x00 (0000ms, 0757ms total)
T10D4 001:347 JLINK_WriteReg(R5, 0x00000000)  returns 0x00 (0000ms, 0757ms total)
T10D4 001:347 JLINK_WriteReg(R6, 0x00000000)  returns 0x00 (0000ms, 0757ms total)
T10D4 001:347 JLINK_WriteReg(R7, 0x00000000)  returns 0x00 (0000ms, 0757ms total)
T10D4 001:347 JLINK_WriteReg(R8, 0x00000000)  returns 0x00 (0000ms, 0757ms total)
T10D4 001:347 JLINK_WriteReg(R9, 0x20000160)  returns 0x00 (0000ms, 0757ms total)
T10D4 001:347 JLINK_WriteReg(R10, 0x00000000)  returns 0x00 (0000ms, 0757ms total)
T10D4 001:347 JLINK_WriteReg(R11, 0x00000000)  returns 0x00 (0000ms, 0757ms total)
T10D4 001:347 JLINK_WriteReg(R12, 0x00000000)  returns 0x00 (0001ms, 0758ms total)
T10D4 001:348 JLINK_WriteReg(R13 (SP), 0x20001000)  returns 0x00 (0000ms, 0758ms total)
T10D4 001:348 JLINK_WriteReg(R14, 0x20000001)  returns 0x00 (0000ms, 0758ms total)
T10D4 001:348 JLINK_WriteReg(R15 (PC), 0x200000F4)  returns 0x00 (0000ms, 0758ms total)
T10D4 001:348 JLINK_WriteReg(XPSR, 0x01000000)  returns 0x00 (0000ms, 0758ms total)
T10D4 001:348 JLINK_WriteReg(MSP, 0x20001000)  returns 0x00 (0000ms, 0758ms total)
T10D4 001:348 JLINK_WriteReg(PSP, 0x20001000)  returns 0x00 (0000ms, 0758ms total)
T10D4 001:348 JLINK_WriteReg(CFBP, 0x00000000)  returns 0x00 (0000ms, 0758ms total)
T10D4 001:348 JLINK_SetBPEx(Addr = 0x20000000, Type = 0xFFFFFFF2)  returns 0x0000000E (0000ms, 0758ms total)
T10D4 001:348 JLINK_Go() (0001ms, 0759ms total)
T10D4 001:349 JLINK_IsHalted()  returns FALSE (0001ms, 0760ms total)
T10D4 001:354 JLINK_IsHalted()  returns FALSE (0000ms, 0759ms total)
T10D4 001:358 JLINK_IsHalted()  returns FALSE (0000ms, 0759ms total)
T10D4 001:360 JLINK_IsHalted()  returns FALSE (0000ms, 0759ms total)
T10D4 001:362 JLINK_IsHalted()  returns FALSE (0000ms, 0759ms total)
T10D4 001:366 JLINK_IsHalted()  returns FALSE (0000ms, 0759ms total)
T10D4 001:368 JLINK_IsHalted()  returns FALSE (0000ms, 0759ms total)
T10D4 001:370 JLINK_IsHalted()  returns FALSE (0000ms, 0759ms total)
T10D4 001:377 JLINK_IsHalted()  returns FALSE (0000ms, 0759ms total)
T10D4 001:381 JLINK_IsHalted() -- CPU_ReadMem(2 bytes @ 0x20000000)  returns TRUE (0003ms, 0762ms total)
T10D4 001:384 JLINK_ReadReg(R15 (PC))  returns 0x20000000 (0000ms, 0759ms total)
T10D4 001:384 JLINK_ClrBPEx(BPHandle = 0x0000000E)  returns 0x00 (0000ms, 0759ms total)
T10D4 001:384 JLINK_ReadReg(R0)  returns 0x00000000 (0000ms, 0759ms total)
T10D4 001:385 JLINK_WriteMem(0x20000164, 0x0400 Bytes, ...) - Data: 1A 00 06 00 88 00 07 00 C0 00 0D 00 87 00 0E 00 ... -- CPU_WriteMem(1024 bytes @ 0x20000164)  returns 0x400 (0009ms, 0768ms total)
T10D4 001:394 JLINK_WriteReg(R0, 0x08002800)  returns 0x00 (0000ms, 0768ms total)
T10D4 001:394 JLINK_WriteReg(R1, 0x00000400)  returns 0x00 (0000ms, 0768ms total)
T10D4 001:394 JLINK_WriteReg(R2, 0x20000164)  returns 0x00 (0000ms, 0768ms total)
T10D4 001:394 JLINK_WriteReg(R3, 0x00000000)  returns 0x00 (0000ms, 0768ms total)
T10D4 001:394 JLINK_WriteReg(R4, 0x00000000)  returns 0x00 (0000ms, 0768ms total)
T10D4 001:394 JLINK_WriteReg(R5, 0x00000000)  returns 0x00 (0000ms, 0768ms total)
T10D4 001:394 JLINK_WriteReg(R6, 0x00000000)  returns 0x00 (0000ms, 0768ms total)
T10D4 001:394 JLINK_WriteReg(R7, 0x00000000)  returns 0x00 (0000ms, 0768ms total)
T10D4 001:394 JLINK_WriteReg(R8, 0x00000000)  returns 0x00 (0000ms, 0768ms total)
T10D4 001:394 JLINK_WriteReg(R9, 0x20000160)  returns 0x00 (0000ms, 0768ms total)
T10D4 001:394 JLINK_WriteReg(R10, 0x00000000)  returns 0x00 (0000ms, 0768ms total)
T10D4 001:394 JLINK_WriteReg(R11, 0x00000000)  returns 0x00 (0000ms, 0768ms total)
T10D4 001:395 JLINK_WriteReg(R12, 0x00000000)  returns 0x00 (0000ms, 0769ms total)
T10D4 001:395 JLINK_WriteReg(R13 (SP), 0x20001000)  returns 0x00 (0000ms, 0769ms total)
T10D4 001:395 JLINK_WriteReg(R14, 0x20000001)  returns 0x00 (0000ms, 0769ms total)
